
**** 10/08/21 20:52:03 *********** Evaluation PSpice (Nov 1999) **************

 * C:\Users\Administrator\Documents\circuit\eynep2.sch


 ****     CIRCUIT DESCRIPTION


******************************************************************************




* Schematics Version 9.1 - Web Update 1
* Fri Oct 08 19:58:25 2021



** Analysis setup **
.tran 0ns 5ms 0 0.5ms
.OP 


* From [PSPICE NETLIST] section of pspiceev.ini:
.lib "nom.lib"

.INC "eynep2.net"

**** INCLUDING eynep2.net ****
* Schematics Netlist *



R_R5         0 $N_0001  1k  
R_R1         zeynep1182820 $N_0002  100k  
C_C1         zeynep1182820vin $N_0002  100n  
R_R2         0 zeynep1182820  22k  
C_C2         $N_0001 zeynep1182820vo  1u  
R_R3         0 zeynep1182820vo  100mega  
R_R6         zeynep1182820 $N_0003  47k  
Q_Q1         $N_0003 zeynep1182820 $N_0001 Q2N2222
V_V3         $N_0003 0 10V
V_V1         zeynep1182820vin 0 DC 0 AC 0
+SIN 0 1 1k 0 0 0

**** RESUMING eynep2.cir ****
.INC "eynep2.als"



**** INCLUDING eynep2.als ****
* Schematics Aliases *

.ALIASES
R_R5            R5(1=0 2=$N_0001 )
R_R1            R1(1=zeynep1182820 2=$N_0002 )
C_C1            C1(1=zeynep1182820vin 2=$N_0002 )
R_R2            R2(1=0 2=zeynep1182820 )
C_C2            C2(1=$N_0001 2=zeynep1182820vo )
R_R3            R3(1=0 2=zeynep1182820vo )
R_R6            R6(1=zeynep1182820 2=$N_0003 )
Q_Q1            Q1(c=$N_0003 b=zeynep1182820 e=$N_0001 )
V_V3            V3(+=$N_0003 -=0 )
V_V1            V1(+=zeynep1182820vin -=0 )
_    _(zeynep1182820=zeynep1182820)
_    _(zeynep1182820vin=zeynep1182820vin)
_    _(zeynep1182820vo=zeynep1182820vo)
.ENDALIASES


**** RESUMING eynep2.cir ****
.probe


.END

**** 10/08/21 20:52:03 *********** Evaluation PSpice (Nov 1999) **************

 * C:\Users\Administrator\Documents\circuit\eynep2.sch


 ****     BJT MODEL PARAMETERS


******************************************************************************




               Q2N2222         
               NPN             
          IS   14.340000E-15 
          BF  255.9          
          NF    1            
         VAF   74.03         
         IKF     .2847       
         ISE   14.340000E-15 
          NE    1.307        
          BR    6.092        
          NR    1            
          RB   10            
          RC    1            
         CJE   22.010000E-12 
         MJE     .377        
         CJC    7.306000E-12 
         MJC     .3416       
          TF  411.100000E-12 
         XTF    3            
         VTF    1.7          
         ITF     .6          
          TR   46.910000E-09 
         XTB    1.5          
          CN    2.42         
           D     .87         


**** 10/08/21 20:52:03 *********** Evaluation PSpice (Nov 1999) **************

 * C:\Users\Administrator\Documents\circuit\eynep2.sch


 ****     SMALL SIGNAL BIAS SOLUTION       TEMPERATURE =   27.000 DEG C


******************************************************************************



 NODE   VOLTAGE     NODE   VOLTAGE     NODE   VOLTAGE     NODE   VOLTAGE


($N_0001)    2.3228                   ($N_0002)    2.9882                       

($N_0003)   10.0000                   (zeynep1182820)    2.9882                 

(zeynep1182820vo)    0.0000           (zeynep1182820vin)    0.0000          




    VOLTAGE SOURCE CURRENTS
    NAME         CURRENT

    V_V3        -2.459E-03
    V_V1         0.000E+00

    TOTAL POWER DISSIPATION   2.46E-02  WATTS


**** 10/08/21 20:52:03 *********** Evaluation PSpice (Nov 1999) **************

 * C:\Users\Administrator\Documents\circuit\eynep2.sch


 ****     OPERATING POINT INFORMATION      TEMPERATURE =   27.000 DEG C


******************************************************************************






**** BIPOLAR JUNCTION TRANSISTORS


NAME         Q_Q1      
MODEL        Q2N2222   
IB           1.34E-05 
IC           2.31E-03 
VBE          6.65E-01 
VBC         -7.01E+00 
VCE          7.68E+00 
BETADC       1.73E+02 
GM           8.86E-02 
RPI          2.13E+03 
RX           1.00E+01 
RO           3.51E+04 
CBE          7.34E-11 
CBC          3.29E-12 
CJS          0.00E+00 
BETAAC       1.88E+02 
CBX/CBX2     0.00E+00 
FT/FT2       1.84E+08 


**** 10/08/21 20:52:03 *********** Evaluation PSpice (Nov 1999) **************

 * C:\Users\Administrator\Documents\circuit\eynep2.sch


 ****     INITIAL TRANSIENT SOLUTION       TEMPERATURE =   27.000 DEG C


******************************************************************************



 NODE   VOLTAGE     NODE   VOLTAGE     NODE   VOLTAGE     NODE   VOLTAGE


($N_0001)    2.3228                   ($N_0002)    2.9882                       

($N_0003)   10.0000                   (zeynep1182820)    2.9882                 

(zeynep1182820vo)    0.0000           (zeynep1182820vin)    0.0000          




    VOLTAGE SOURCE CURRENTS
    NAME         CURRENT

    V_V3        -2.459E-03
    V_V1         0.000E+00

    TOTAL POWER DISSIPATION   2.46E-02  WATTS



          JOB CONCLUDED

          TOTAL JOB TIME            0.00
