
**** 09/01/21 18:59:09 *********** Evaluation PSpice (Nov 1999) **************

 * C:\Users\Administrator\Documents\circuit\Schematic3.sch


 ****     CIRCUIT DESCRIPTION


******************************************************************************




* Schematics Version 9.1 - Web Update 1
* Fri Aug 27 17:06:00 2021



** Analysis setup **
.tran 0ns 1000ns
.OP 


* From [PSPICE NETLIST] section of pspiceev.ini:
.lib "nom.lib"

.INC "Schematic3.net"

**** INCLUDING Schematic3.net ****
* Schematics Netlist *



R_R2         0 $N_0001  8  
C_C1         0 $N_0002  0.05  
R_R1         $N_0003 $N_0002  4  
V_V1         $N_0004 0 12V
L_L1         $N_0002 $N_0001  4H  
X_U1         $N_0004 $N_0003 Sw_tOpen PARAMS: tOpen=0 ttran=1u Rclosed=0.01
+  Ropen=1Meg

**** RESUMING Schematic3.cir ****
.INC "Schematic3.als"



**** INCLUDING Schematic3.als ****
* Schematics Aliases *

.ALIASES
R_R2            R2(1=0 2=$N_0001 )
C_C1            C1(1=0 2=$N_0002 )
R_R1            R1(1=$N_0003 2=$N_0002 )
V_V1            V1(+=$N_0004 -=0 )
L_L1            L1(1=$N_0002 2=$N_0001 )
X_U1            U1(1=$N_0004 2=$N_0003 )
.ENDALIASES


**** RESUMING Schematic3.cir ****
.probe


.END

**** 09/01/21 18:59:09 *********** Evaluation PSpice (Nov 1999) **************

 * C:\Users\Administrator\Documents\circuit\Schematic3.sch


 ****     Voltage Controlled Switch MODEL PARAMETERS


******************************************************************************




               X_U1.Smod       
         RON     .01         
        ROFF    1.000000E+06 
         VON    1            
        VOFF    0            


**** 09/01/21 18:59:09 *********** Evaluation PSpice (Nov 1999) **************

 * C:\Users\Administrator\Documents\circuit\Schematic3.sch


 ****     SMALL SIGNAL BIAS SOLUTION       TEMPERATURE =   27.000 DEG C


******************************************************************************



 NODE   VOLTAGE     NODE   VOLTAGE     NODE   VOLTAGE     NODE   VOLTAGE


(X_U1.3)    1.0000 ($N_0001)    7.9933                   ($N_0002)    7.9933    

($N_0003)   11.9900                   ($N_0004)   12.0000                   




    VOLTAGE SOURCE CURRENTS
    NAME         CURRENT

    V_V1        -9.992E-01
    X_U1.V1     -1.000E-12

    TOTAL POWER DISSIPATION   1.20E+01  WATTS


**** 09/01/21 18:59:09 *********** Evaluation PSpice (Nov 1999) **************

 * C:\Users\Administrator\Documents\circuit\Schematic3.sch


 ****     OPERATING POINT INFORMATION      TEMPERATURE =   27.000 DEG C


******************************************************************************






**** VOLTAGE CONTROLLED SWITCHES


NAME         X_U1.S1   
MODEL        X_U1.Smod 
I LOAD       9.99E-01 
V LOAD       9.99E-03 
R LOAD       1.00E-02 
V CTRL       1.00E+00 
**** 09/01/21 18:59:09 *********** Evaluation PSpice (Nov 1999) **************

 * C:\Users\Administrator\Documents\circuit\Schematic3.sch


 ****     INITIAL TRANSIENT SOLUTION       TEMPERATURE =   27.000 DEG C


******************************************************************************



 NODE   VOLTAGE     NODE   VOLTAGE     NODE   VOLTAGE     NODE   VOLTAGE


(X_U1.3)    1.0000 ($N_0001)    7.9933                   ($N_0002)    7.9933    

($N_0003)   11.9900                   ($N_0004)   12.0000                   




    VOLTAGE SOURCE CURRENTS
    NAME         CURRENT

    V_V1        -9.992E-01
    X_U1.V1     -1.000E-12

    TOTAL POWER DISSIPATION   1.20E+01  WATTS



          JOB CONCLUDED

          TOTAL JOB TIME             .02
